
T13E4 000:053 SEGGER J-Link V6.10i Log File (0001ms, 0047ms total)
T13E4 000:053 DLL Compiled: Oct 25 2016 19:31:51 (0001ms, 0047ms total)
T13E4 000:053 Logging started @ 2017-01-17 16:00 (0001ms, 0047ms total)
T13E4 000:054 JLINK_SetWarnOutHandler(...) (0000ms, 0047ms total)
T13E4 000:054 JLINK_OpenEx(...)
Firmware: J-Link Lite-XMC4200 Rev.1 compiled Jan 14 2016 11:19:27
Hardware: V1.00
S/N: 591026626WEBSRV Webserver running on local port 19080 (0035ms, 0082ms total)
T13E4 000:054   returns O.K. (0035ms, 0082ms total)
T13E4 000:089 JLINK_SetErrorOutHandler(...) (0000ms, 0082ms total)
T13E4 000:089 JLINK_ExecCommand("ProjectFile = "C:\keilcode\infineon\BLDC_SCALAR_HALL_XMC44\JLinkSettings.ini"", ...).   returns 0x00 (0097ms, 0179ms total)
T13E4 000:188 JLINK_ExecCommand("Device = XMC4400-F100x512", ...). Device "XMC4400-512" selected.  returns 0x00 (0003ms, 0182ms total)
T13E4 000:191 JLINK_ExecCommand("DisableConnectionTimeout", ...).   returns 0x01 (0000ms, 0182ms total)
T13E4 000:191 JLINK_GetHardwareVersion()  returns 0x2710 (0000ms, 0182ms total)
T13E4 000:191 JLINK_GetDLLVersion()  returns 61009 (0000ms, 0182ms total)
T13E4 000:191 JLINK_GetFirmwareString(...) (0000ms, 0182ms total)
T13E4 000:199 JLINK_GetDLLVersion()  returns 61009 (0000ms, 0182ms total)
T13E4 000:199 JLINK_GetCompileDateTime() (0000ms, 0182ms total)
T13E4 000:201 JLINK_GetFirmwareString(...) (0000ms, 0182ms total)
T13E4 000:204 JLINK_GetHardwareVersion()  returns 0x2710 (0000ms, 0182ms total)
T13E4 000:211 JLINK_TIF_Select(JLINKARM_TIF_SWD)  returns 0x00 (0009ms, 0191ms total)
T13E4 000:220 JLINK_SetSpeed(5000) (0002ms, 0193ms total)
T13E4 000:222 JLINK_GetId()Performing XMC4500 connection sequence.
                JLINK_EMU_HasCapEx(0x0000002C)  returns 0x01 (0000ms, 0000ms total)
               >0x0D TIF> >0x28 TIF> >0x0D TIF> >0x28 TIF> >0x0D TIF> >0x28 TIF> >0x0D TIF> >0x28 TIF> >0x0D TIF> >0x21 TIF> >0x0D TIF> >0x21 TIF> >0x0D TIF> >0x21 TIF> >0x0D TIF> >0x21 TIF> >0x0D TIF> >0x28 TIF> >0x0D TIF> >0x28 TIF> >0x0D TIF> >0x28 TIF> >0x0D TIF> >0x28 TIF> >0x0D TIF> >0x28 TIF> >0x0D TIF> >0x28 TIF> >0x0D TIF> >0x28 TIF> >0x0D TIF> >0x28 TIF> >0x0D TIF> >0x28 TIF> >0x0D TIF> >0x28 TIF> >0x0D TIF> >0x21 TIF> >0x0D TIF> >0x28 TIF> >0x0D TIF> >0x28 TIF> >0x0D TIF> >0x21 TIF> >0x0D TIF>
 >0x21 TIF> >0x0D TIF> >0x21 TIF>AP-IDR: 0x24770011, Type: AHB-AP >0x0D TIF> >0x28 TIF> >0x0D TIF> >0x28 TIF> >0x0D TIF> >0x28 TIF> >0x0D TIF> >0x21 TIF> >0x0D TIF> >0x21 TIF> >0x0D TIF> >0x28 TIF> >0x0D TIF> >0x21 TIF> >0x0D TIF> >0x21 TIF>Found Cortex-M4 r0p1, Little endian. -- CPU_ReadMem(4 bytes @ 0xE000EDF0) -- CPU_ReadMem(4 bytes @ 0xE0002000)FPUnit: 6 code (BP) slots and 2 literal slots -- CPU_ReadMem(4 bytes @ 0xE000EDFC) -- CPU_WriteMem(4 bytes @ 0xE000EDFC) -- CPU_ReadMem(4 bytes @ 0xE0001000)
 -- CPU_WriteMem(4 bytes @ 0xE0001000) -- CPU_ReadMem(4 bytes @ 0xE000ED88) -- CPU_WriteMem(4 bytes @ 0xE000ED88) -- CPU_ReadMem(4 bytes @ 0xE000ED88) -- CPU_WriteMem(4 bytes @ 0xE000ED88)CoreSight components:ROMTbl 0 @ E00FF000 -- CPU_ReadMem(16 bytes @ 0xE00FF000) -- CPU_ReadMem(16 bytes @ 0xE000EFF0) -- CPU_ReadMem(16 bytes @ 0xE000EFE0)ROMTbl 0 [0]: FFF0F000, CID: B105E00D, PID: 000BB00C SCS -- CPU_ReadMem(16 bytes @ 0xE0001FF0) -- CPU_ReadMem(16 bytes @ 0xE0001FE0)
ROMTbl 0 [1]: FFF02000, CID: B105E00D, PID: 003BB002 DWT -- CPU_ReadMem(16 bytes @ 0xE0002FF0) -- CPU_ReadMem(16 bytes @ 0xE0002FE0)ROMTbl 0 [2]: FFF03000, CID: B105E00D, PID: 002BB003 FPB -- CPU_ReadMem(16 bytes @ 0xE0000FF0) -- CPU_ReadMem(16 bytes @ 0xE0000FE0)ROMTbl 0 [3]: FFF01000, CID: B105E00D, PID: 003BB001 ITM -- CPU_ReadMem(16 bytes @ 0xE00FF010) -- CPU_ReadMem(16 bytes @ 0xE0040FF0) -- CPU_ReadMem(16 bytes @ 0xE0040FE0)ROMTbl 0 [4]: FFF41000, CID: B105900D, PID: 000BB9A1 TPIU
 -- CPU_ReadMem(16 bytes @ 0xE0041FF0) -- CPU_ReadMem(16 bytes @ 0xE0041FE0)ROMTbl 0 [5]: FFF42000, CID: B105900D, PID: 000BB925 ETM >0x0D TIF> >0x21 TIF>  returns 0x2BA01477 (0292ms, 0485ms total)
T13E4 000:514 JLINK_GetDLLVersion()  returns 61009 (0000ms, 0485ms total)
T13E4 000:514 JLINK_CORE_GetFound()  returns 0xE0000FF (0000ms, 0485ms total)
T13E4 000:514 JLINK_GetDebugInfo(0x100) -- Value=0xE00FF000  returns 0x00 (0000ms, 0485ms total)
T13E4 000:517 JLINK_GetDebugInfo(0x100) -- Value=0xE00FF000  returns 0x00 (0000ms, 0485ms total)
T13E4 000:517 JLINK_GetDebugInfo(0x101) -- Value=0xE0041000  returns 0x00 (0000ms, 0485ms total)
T13E4 000:517 JLINK_GetDebugInfo(0x102) -- Value=0x00000000  returns 0x00 (0000ms, 0485ms total)
T13E4 000:517 JLINK_GetDebugInfo(0x103) -- Value=0xE0040000  returns 0x00 (0000ms, 0485ms total)
T13E4 000:517 JLINK_GetDebugInfo(0x104) -- Value=0xE0000000  returns 0x00 (0000ms, 0485ms total)
T13E4 000:517 JLINK_GetDebugInfo(0x105) -- Value=0xE0001000  returns 0x00 (0000ms, 0485ms total)
T13E4 000:517 JLINK_GetDebugInfo(0x106) -- Value=0xE0002000  returns 0x00 (0000ms, 0485ms total)
T13E4 000:517 JLINK_GetDebugInfo(0x107) -- Value=0xE000E000  returns 0x00 (0000ms, 0485ms total)
T13E4 000:517 JLINK_GetDebugInfo(0x10C) -- Value=0xE000EDF0  returns 0x00 (0000ms, 0485ms total)
T13E4 000:517 JLINK_ReadMemU32(0xE000EF40, 0x0001 Items, ...) -- CPU is running -- CPU_ReadMem(4 bytes @ 0xE000EF40) - Data: 21 00 11 10  returns 0x01 (0003ms, 0488ms total)
T13E4 000:520 JLINK_ReadMemU32(0xE000EF44, 0x0001 Items, ...) -- CPU is running -- CPU_ReadMem(4 bytes @ 0xE000EF44) - Data: 11 00 00 11  returns 0x01 (0002ms, 0490ms total)
T13E4 000:522 JLINK_ReadMemU32(0xE000ED00, 0x0001 Items, ...) -- CPU is running -- CPU_ReadMem(4 bytes @ 0xE000ED00) - Data: 41 C2 0F 41  returns 0x01 (0003ms, 0493ms total)
T13E4 000:525 JLINK_SetResetType(JLINKARM_RESET_TYPE_NORMAL)  returns JLINKARM_RESET_TYPE_BP0 (0000ms, 0493ms total)
T13E4 000:525 JLINK_Reset()Performing XMC4500 reset -- CPU_ReadMem(4 bytes @ 0x0C000004) -- CPU_WriteMem(4 bytes @ 0xE0002000) -- CPU_ReadMem(4 bytes @ 0xE0002008) -- CPU_WriteMem(4 bytes @ 0xE0002008) -- CPU_WriteMem(4 bytes @ 0xE000ED0C) -- CPU is running -- CPU_WriteMem(4 bytes @ 0xE0002008) -- CPU_WriteMem(4 bytes @ 0xE0002000) -- CPU_ReadMem(4 bytes @ 0xE000EDFC) -- CPU_ReadMem(4 bytes @ 0xE0001000) (0057ms, 0550ms total)
T13E4 000:582 JLINK_Halt()  returns 0x00 (0000ms, 0550ms total)
T13E4 000:582 JLINK_IsHalted()  returns TRUE (0000ms, 0550ms total)
T13E4 000:582 JLINK_ReadMemU32(0xE000EDF0, 0x0001 Items, ...) -- CPU_ReadMem(4 bytes @ 0xE000EDF0) - Data: 03 00 03 00  returns 0x01 (0002ms, 0552ms total)
T13E4 000:584 JLINK_WriteU32(0xE000EDF0, 0xA05F0003) -- CPU_WriteMem(4 bytes @ 0xE000EDF0)  returns 0x00 (0003ms, 0555ms total)
T13E4 000:587 JLINK_WriteU32(0xE000EDFC, 0x01000000) -- CPU_WriteMem(4 bytes @ 0xE000EDFC)  returns 0x00 (0002ms, 0557ms total)
T13E4 000:598 JLINK_GetHWStatus(...)  returns 0x00 (0003ms, 0560ms total)
T13E4 000:611 JLINK_GetNumBPUnits(Type = 0xFFFFFF00)  returns 0x06 (0000ms, 0560ms total)
T13E4 000:611 JLINK_GetNumBPUnits(Type = 0xF0)  returns 0x2000 (0000ms, 0560ms total)
T13E4 000:611 JLINK_GetNumWPUnits()  returns 0x04 (0000ms, 0560ms total)
T13E4 000:621 JLINK_GetSpeed()  returns 0xBB8 (0000ms, 0560ms total)
T13E4 000:625 JLINK_ReadMemU32(0xE000E004, 0x0001 Items, ...) -- CPU_ReadMem(4 bytes @ 0xE000E004) - Data: 03 00 00 00  returns 0x01 (0003ms, 0563ms total)
T13E4 000:628 JLINK_ReadMemU32(0xE000E004, 0x0001 Items, ...) -- CPU_ReadMem(4 bytes @ 0xE000E004) - Data: 03 00 00 00  returns 0x01 (0002ms, 0565ms total)
T13E4 000:630 JLINK_WriteMem(0xE0001000, 0x001C Bytes, ...) - Data: 01 00 00 00 00 00 00 00 00 00 00 00 00 00 00 00 ... -- CPU_WriteMem(28 bytes @ 0xE0001000)  returns 0x1C (0003ms, 0568ms total)
T13E4 000:633 JLINK_ReadMem (0xE0001000, 0x001C Bytes, ...) -- CPU_ReadMem(28 bytes @ 0xE0001000) - Data: 01 00 00 40 00 00 00 00 00 00 00 00 00 00 00 00 ...  returns 0x00 (0003ms, 0571ms total)
T13E4 000:636 JLINK_Halt()  returns 0x00 (0000ms, 0571ms total)
T13E4 000:636 JLINK_IsHalted()  returns TRUE (0000ms, 0571ms total)
T13E4 000:638 JLINK_WriteMem(0x20000000, 0x0138 Bytes, ...) - Data: 00 BE 0A E0 0D 78 2D 06 68 40 08 24 40 00 00 D3 ... -- CPU_WriteMem(312 bytes @ 0x20000000)  returns 0x138 (0004ms, 0575ms total)
T13E4 000:642 JLINK_WriteReg(R0, 0x08000000)  returns 0x00 (0000ms, 0575ms total)
T13E4 000:642 JLINK_WriteReg(R1, 0x00B71B00)  returns 0x00 (0000ms, 0575ms total)
T13E4 000:642 JLINK_WriteReg(R2, 0x00000001)  returns 0x00 (0000ms, 0575ms total)
T13E4 000:642 JLINK_WriteReg(R3, 0x00000000)  returns 0x00 (0000ms, 0575ms total)
T13E4 000:642 JLINK_WriteReg(R4, 0x00000000)  returns 0x00 (0000ms, 0575ms total)
T13E4 000:642 JLINK_WriteReg(R5, 0x00000000)  returns 0x00 (0000ms, 0575ms total)
T13E4 000:642 JLINK_WriteReg(R6, 0x00000000)  returns 0x00 (0000ms, 0575ms total)
T13E4 000:642 JLINK_WriteReg(R7, 0x00000000)  returns 0x00 (0000ms, 0575ms total)
T13E4 000:642 JLINK_WriteReg(R8, 0x00000000)  returns 0x00 (0000ms, 0575ms total)
T13E4 000:642 JLINK_WriteReg(R9, 0x20000134)  returns 0x00 (0000ms, 0575ms total)
T13E4 000:642 JLINK_WriteReg(R10, 0x00000000)  returns 0x00 (0000ms, 0575ms total)
T13E4 000:642 JLINK_WriteReg(R11, 0x00000000)  returns 0x00 (0000ms, 0575ms total)
T13E4 000:642 JLINK_WriteReg(R12, 0x00000000)  returns 0x00 (0000ms, 0575ms total)
T13E4 000:642 JLINK_WriteReg(R13 (SP), 0x20001000)  returns 0x00 (0000ms, 0575ms total)
T13E4 000:642 JLINK_WriteReg(R14, 0x20000001)  returns 0x00 (0000ms, 0575ms total)
T13E4 000:642 JLINK_WriteReg(R15 (PC), 0x20000038)  returns 0x00 (0000ms, 0575ms total)
T13E4 000:642 JLINK_WriteReg(XPSR, 0x01000000)  returns 0x00 (0000ms, 0575ms total)
T13E4 000:642 JLINK_WriteReg(MSP, 0x20001000)  returns 0x00 (0000ms, 0575ms total)
T13E4 000:642 JLINK_WriteReg(PSP, 0x20001000)  returns 0x00 (0000ms, 0575ms total)
T13E4 000:642 JLINK_WriteReg(CFBP, 0x00000000)  returns 0x00 (0000ms, 0575ms total)
T13E4 000:642 JLINK_SetBPEx(Addr = 0x20000000, Type = 0xFFFFFFF2) -- CPU_ReadMem(2 bytes @ 0x20000000)  returns 0x00000001 (0003ms, 0578ms total)
T13E4 000:645 JLINK_Go() -- CPU_WriteMem(2 bytes @ 0x20000000) -- CPU_ReadMem(4 bytes @ 0xE0001000) -- CPU_WriteMem(4 bytes @ 0xE0002008) -- CPU_WriteMem(4 bytes @ 0xE000200C) -- CPU_WriteMem(4 bytes @ 0xE0002010) -- CPU_WriteMem(4 bytes @ 0xE0002014) -- CPU_WriteMem(4 bytes @ 0xE0002018) -- CPU_WriteMem(4 bytes @ 0xE000201C) -- CPU_WriteMem(4 bytes @ 0xE0001004) (0019ms, 0597ms total)
T13E4 000:664 JLINK_IsHalted() -- CPU_ReadMem(2 bytes @ 0x20000000)  returns TRUE (0009ms, 0606ms total)
T13E4 000:673 JLINK_ReadReg(R15 (PC))  returns 0x20000000 (0000ms, 0597ms total)
T13E4 000:673 JLINK_ClrBPEx(BPHandle = 0x00000001)  returns 0x00 (0000ms, 0597ms total)
T13E4 000:673 JLINK_ReadReg(R0)  returns 0x00000000 (0000ms, 0597ms total)
T13E4 000:673 JLINK_WriteReg(R0, 0x08000000)  returns 0x00 (0000ms, 0597ms total)
T13E4 000:673 JLINK_WriteReg(R1, 0x00004000)  returns 0x00 (0000ms, 0597ms total)
T13E4 000:673 JLINK_WriteReg(R2, 0x00000000)  returns 0x00 (0000ms, 0597ms total)
T13E4 000:673 JLINK_WriteReg(R3, 0x00000000)  returns 0x00 (0000ms, 0597ms total)
T13E4 000:673 JLINK_WriteReg(R4, 0x00000000)  returns 0x00 (0000ms, 0597ms total)
T13E4 000:673 JLINK_WriteReg(R5, 0x00000000)  returns 0x00 (0001ms, 0598ms total)
T13E4 000:674 JLINK_WriteReg(R6, 0x00000000)  returns 0x00 (0000ms, 0598ms total)
T13E4 000:674 JLINK_WriteReg(R7, 0x00000000)  returns 0x00 (0000ms, 0598ms total)
T13E4 000:674 JLINK_WriteReg(R8, 0x00000000)  returns 0x00 (0000ms, 0598ms total)
T13E4 000:674 JLINK_WriteReg(R9, 0x20000134)  returns 0x00 (0000ms, 0598ms total)
T13E4 000:674 JLINK_WriteReg(R10, 0x00000000)  returns 0x00 (0000ms, 0598ms total)
T13E4 000:674 JLINK_WriteReg(R11, 0x00000000)  returns 0x00 (0000ms, 0598ms total)
T13E4 000:674 JLINK_WriteReg(R12, 0x00000000)  returns 0x00 (0000ms, 0598ms total)
T13E4 000:674 JLINK_WriteReg(R13 (SP), 0x20001000)  returns 0x00 (0000ms, 0598ms total)
T13E4 000:674 JLINK_WriteReg(R14, 0x20000001)  returns 0x00 (0000ms, 0598ms total)
T13E4 000:674 JLINK_WriteReg(R15 (PC), 0x20000020)  returns 0x00 (0000ms, 0598ms total)
T13E4 000:674 JLINK_WriteReg(XPSR, 0x01000000)  returns 0x00 (0000ms, 0598ms total)
T13E4 000:674 JLINK_WriteReg(MSP, 0x20001000)  returns 0x00 (0000ms, 0598ms total)
T13E4 000:674 JLINK_WriteReg(PSP, 0x20001000)  returns 0x00 (0000ms, 0598ms total)
T13E4 000:674 JLINK_WriteReg(CFBP, 0x00000000)  returns 0x00 (0000ms, 0598ms total)
T13E4 000:674 JLINK_SetBPEx(Addr = 0x20000000, Type = 0xFFFFFFF2)  returns 0x00000002 (0000ms, 0598ms total)
T13E4 000:674 JLINK_Go() -- CPU_ReadMem(4 bytes @ 0xE0001000) (0007ms, 0605ms total)
T13E4 000:681 JLINK_IsHalted() -- CPU_ReadMem(2 bytes @ 0x20000000)  returns TRUE (0010ms, 0615ms total)
T13E4 000:691 JLINK_ReadReg(R15 (PC))  returns 0x20000000 (0000ms, 0605ms total)
T13E4 000:691 JLINK_ClrBPEx(BPHandle = 0x00000002)  returns 0x00 (0000ms, 0605ms total)
T13E4 000:691 JLINK_ReadReg(R0)  returns 0x00000001 (0000ms, 0605ms total)
T13E4 000:691 JLINK_WriteReg(R0, 0x08000000)  returns 0x00 (0000ms, 0605ms total)
T13E4 000:691 JLINK_WriteReg(R1, 0x00004000)  returns 0x00 (0000ms, 0605ms total)
T13E4 000:691 JLINK_WriteReg(R2, 0x00000000)  returns 0x00 (0000ms, 0605ms total)
T13E4 000:691 JLINK_WriteReg(R3, 0x00000000)  returns 0x00 (0000ms, 0605ms total)
T13E4 000:691 JLINK_WriteReg(R4, 0x00000000)  returns 0x00 (0000ms, 0605ms total)
T13E4 000:691 JLINK_WriteReg(R5, 0x00000000)  returns 0x00 (0000ms, 0605ms total)
T13E4 000:691 JLINK_WriteReg(R6, 0x00000000)  returns 0x00 (0000ms, 0605ms total)
T13E4 000:691 JLINK_WriteReg(R7, 0x00000000)  returns 0x00 (0000ms, 0605ms total)
T13E4 000:691 JLINK_WriteReg(R8, 0x00000000)  returns 0x00 (0000ms, 0605ms total)
T13E4 000:691 JLINK_WriteReg(R9, 0x20000134)  returns 0x00 (0000ms, 0605ms total)
T13E4 000:691 JLINK_WriteReg(R10, 0x00000000)  returns 0x00 (0000ms, 0605ms total)
T13E4 000:691 JLINK_WriteReg(R11, 0x00000000)  returns 0x00 (0000ms, 0605ms total)
T13E4 000:691 JLINK_WriteReg(R12, 0x00000000)  returns 0x00 (0000ms, 0605ms total)
T13E4 000:691 JLINK_WriteReg(R13 (SP), 0x20001000)  returns 0x00 (0000ms, 0605ms total)
T13E4 000:691 JLINK_WriteReg(R14, 0x20000001)  returns 0x00 (0000ms, 0605ms total)
T13E4 000:691 JLINK_WriteReg(R15 (PC), 0x20000040)  returns 0x00 (0000ms, 0605ms total)
T13E4 000:691 JLINK_WriteReg(XPSR, 0x01000000)  returns 0x00 (0000ms, 0605ms total)
T13E4 000:691 JLINK_WriteReg(MSP, 0x20001000)  returns 0x00 (0000ms, 0605ms total)
T13E4 000:691 JLINK_WriteReg(PSP, 0x20001000)  returns 0x00 (0000ms, 0605ms total)
T13E4 000:691 JLINK_WriteReg(CFBP, 0x00000000)  returns 0x00 (0000ms, 0605ms total)
T13E4 000:691 JLINK_SetBPEx(Addr = 0x20000000, Type = 0xFFFFFFF2)  returns 0x00000003 (0000ms, 0605ms total)
T13E4 000:691 JLINK_Go() -- CPU_ReadMem(4 bytes @ 0xE0001000) (0008ms, 0613ms total)
T13E4 000:699 JLINK_IsHalted()  returns FALSE (0002ms, 0615ms total)
T13E4 000:730 JLINK_IsHalted()  returns FALSE (0002ms, 0615ms total)
T13E4 000:733 JLINK_IsHalted()  returns FALSE (0002ms, 0615ms total)
T13E4 000:736 JLINK_IsHalted()  returns FALSE (0002ms, 0615ms total)
T13E4 000:739 JLINK_IsHalted()  returns FALSE (0002ms, 0615ms total)
T13E4 000:743 JLINK_IsHalted()  returns FALSE (0002ms, 0615ms total)
T13E4 000:746 JLINK_IsHalted()  returns FALSE (0002ms, 0615ms total)
T13E4 000:749 JLINK_IsHalted()  returns FALSE (0002ms, 0615ms total)
T13E4 000:752 JLINK_IsHalted()  returns FALSE (0002ms, 0615ms total)
T13E4 000:755 JLINK_IsHalted()  returns FALSE (0002ms, 0615ms total)
T13E4 000:758 JLINK_IsHalted()  returns FALSE (0002ms, 0615ms total)
T13E4 000:761 JLINK_IsHalted()  returns FALSE (0002ms, 0615ms total)
T13E4 000:764 JLINK_IsHalted()  returns FALSE (0002ms, 0615ms total)
T13E4 000:767 JLINK_IsHalted()  returns FALSE (0002ms, 0615ms total)
T13E4 000:770 JLINK_IsHalted()  returns FALSE (0002ms, 0615ms total)
T13E4 000:773 JLINK_IsHalted()  returns FALSE (0002ms, 0615ms total)
T13E4 000:776 JLINK_IsHalted()  returns FALSE (0002ms, 0615ms total)
T13E4 000:779 JLINK_IsHalted()  returns FALSE (0002ms, 0615ms total)
T13E4 000:782 JLINK_IsHalted()  returns FALSE (0002ms, 0615ms total)
T13E4 000:785 JLINK_IsHalted()  returns FALSE (0002ms, 0615ms total)
T13E4 000:788 JLINK_IsHalted()  returns FALSE (0002ms, 0615ms total)
T13E4 000:791 JLINK_IsHalted()  returns FALSE (0002ms, 0615ms total)
T13E4 000:794 JLINK_IsHalted()  returns FALSE (0002ms, 0615ms total)
T13E4 000:797 JLINK_IsHalted()  returns FALSE (0002ms, 0615ms total)
T13E4 000:800 JLINK_IsHalted()  returns FALSE (0002ms, 0615ms total)
T13E4 000:803 JLINK_IsHalted()  returns FALSE (0002ms, 0615ms total)
T13E4 000:807 JLINK_IsHalted()  returns FALSE (0002ms, 0615ms total)
T13E4 000:810 JLINK_IsHalted()  returns FALSE (0002ms, 0615ms total)
T13E4 000:813 JLINK_IsHalted()  returns FALSE (0002ms, 0615ms total)
T13E4 000:816 JLINK_IsHalted()  returns FALSE (0002ms, 0615ms total)
T13E4 000:819 JLINK_IsHalted()  returns FALSE (0002ms, 0615ms total)
T13E4 000:825 JLINK_IsHalted()  returns FALSE (0002ms, 0615ms total)
T13E4 000:828 JLINK_IsHalted()  returns FALSE (0002ms, 0615ms total)
T13E4 000:831 JLINK_IsHalted()  returns FALSE (0002ms, 0615ms total)
T13E4 000:834 JLINK_IsHalted()  returns FALSE (0002ms, 0615ms total)
T13E4 000:837 JLINK_IsHalted()  returns FALSE (0002ms, 0615ms total)
T13E4 000:840 JLINK_IsHalted()  returns FALSE (0002ms, 0615ms total)
T13E4 000:843 JLINK_IsHalted()  returns FALSE (0002ms, 0615ms total)
T13E4 000:846 JLINK_IsHalted()  returns FALSE (0002ms, 0615ms total)
T13E4 000:849 JLINK_IsHalted()  returns FALSE (0002ms, 0615ms total)
T13E4 000:852 JLINK_IsHalted()  returns FALSE (0002ms, 0615ms total)
T13E4 000:855 JLINK_IsHalted()  returns FALSE (0003ms, 0616ms total)
T13E4 000:859 JLINK_IsHalted()  returns FALSE (0002ms, 0615ms total)
T13E4 000:862 JLINK_IsHalted()  returns FALSE (0002ms, 0615ms total)
T13E4 000:865 JLINK_IsHalted()  returns FALSE (0002ms, 0615ms total)
T13E4 000:868 JLINK_IsHalted()  returns FALSE (0002ms, 0615ms total)
T13E4 000:871 JLINK_IsHalted()  returns FALSE (0002ms, 0615ms total)
T13E4 000:874 JLINK_IsHalted()  returns FALSE (0002ms, 0615ms total)
T13E4 000:877 JLINK_IsHalted()  returns FALSE (0002ms, 0615ms total)
T13E4 000:880 JLINK_IsHalted()  returns FALSE (0002ms, 0615ms total)
T13E4 000:883 JLINK_IsHalted()  returns FALSE (0002ms, 0615ms total)
T13E4 000:886 JLINK_IsHalted()  returns FALSE (0002ms, 0615ms total)
T13E4 000:889 JLINK_IsHalted()  returns FALSE (0002ms, 0615ms total)
T13E4 000:892 JLINK_IsHalted()  returns FALSE (0002ms, 0615ms total)
T13E4 000:895 JLINK_IsHalted()  returns FALSE (0002ms, 0615ms total)
T13E4 000:898 JLINK_IsHalted()  returns FALSE (0002ms, 0615ms total)
T13E4 000:901 JLINK_IsHalted()  returns FALSE (0002ms, 0615ms total)
T13E4 000:904 JLINK_IsHalted()  returns FALSE (0002ms, 0615ms total)
T13E4 000:907 JLINK_IsHalted()  returns FALSE (0002ms, 0615ms total)
T13E4 000:910 JLINK_IsHalted()  returns FALSE (0002ms, 0615ms total)
T13E4 000:913 JLINK_IsHalted()  returns FALSE (0002ms, 0615ms total)
T13E4 000:916 JLINK_IsHalted()  returns FALSE (0002ms, 0615ms total)
T13E4 000:919 JLINK_IsHalted()  returns FALSE (0002ms, 0615ms total)
T13E4 000:922 JLINK_IsHalted()  returns FALSE (0002ms, 0615ms total)
T13E4 000:925 JLINK_IsHalted()  returns FALSE (0002ms, 0617ms total)
T13E4 000:928 JLINK_IsHalted()  returns FALSE (0004ms, 0619ms total)
T13E4 000:934 JLINK_IsHalted()  returns FALSE (0002ms, 0617ms total)
T13E4 000:937 JLINK_IsHalted()  returns FALSE (0002ms, 0617ms total)
T13E4 000:940 JLINK_IsHalted()  returns FALSE (0002ms, 0617ms total)
T13E4 000:943 JLINK_IsHalted()  returns FALSE (0002ms, 0617ms total)
T13E4 000:946 JLINK_IsHalted()  returns FALSE (0002ms, 0617ms total)
T13E4 000:949 JLINK_IsHalted()  returns FALSE (0002ms, 0617ms total)
T13E4 000:952 JLINK_IsHalted()  returns FALSE (0002ms, 0617ms total)
T13E4 000:955 JLINK_IsHalted()  returns FALSE (0003ms, 0618ms total)
T13E4 000:959 JLINK_IsHalted()  returns FALSE (0002ms, 0617ms total)
T13E4 000:962 JLINK_IsHalted()  returns FALSE (0002ms, 0617ms total)
T13E4 000:965 JLINK_IsHalted()  returns FALSE (0002ms, 0617ms total)
T13E4 000:968 JLINK_IsHalted()  returns FALSE (0002ms, 0617ms total)
T13E4 000:971 JLINK_IsHalted()  returns FALSE (0002ms, 0617ms total)
T13E4 000:974 JLINK_IsHalted()  returns FALSE (0002ms, 0617ms total)
T13E4 000:977 JLINK_IsHalted()  returns FALSE (0002ms, 0617ms total)
T13E4 000:980 JLINK_IsHalted()  returns FALSE (0002ms, 0617ms total)
T13E4 000:983 JLINK_IsHalted()  returns FALSE (0002ms, 0617ms total)
T13E4 000:986 JLINK_IsHalted()  returns FALSE (0002ms, 0617ms total)
T13E4 000:989 JLINK_IsHalted()  returns FALSE (0002ms, 0617ms total)
T13E4 000:992 JLINK_IsHalted()  returns FALSE (0002ms, 0617ms total)
T13E4 000:995 JLINK_IsHalted()  returns FALSE (0002ms, 0617ms total)
T13E4 000:998 JLINK_IsHalted()  returns FALSE (0002ms, 0617ms total)
T13E4 001:001 JLINK_IsHalted()  returns FALSE (0002ms, 0617ms total)
T13E4 001:004 JLINK_IsHalted()  returns FALSE (0002ms, 0617ms total)
T13E4 001:007 JLINK_IsHalted()  returns FALSE (0002ms, 0617ms total)
T13E4 001:010 JLINK_IsHalted()  returns FALSE (0002ms, 0617ms total)
T13E4 001:013 JLINK_IsHalted()  returns FALSE (0002ms, 0617ms total)
T13E4 001:016 JLINK_IsHalted()  returns FALSE (0002ms, 0617ms total)
T13E4 001:019 JLINK_IsHalted()  returns FALSE (0002ms, 0617ms total)
T13E4 001:022 JLINK_IsHalted()  returns FALSE (0002ms, 0617ms total)
T13E4 001:026 JLINK_IsHalted()  returns FALSE (0002ms, 0617ms total)
T13E4 001:029 JLINK_IsHalted()  returns FALSE (0002ms, 0617ms total)
T13E4 001:033 JLINK_IsHalted()  returns FALSE (0002ms, 0617ms total)
T13E4 001:036 JLINK_IsHalted()  returns FALSE (0002ms, 0617ms total)
T13E4 001:040 JLINK_IsHalted()  returns FALSE (0002ms, 0617ms total)
T13E4 001:044 JLINK_IsHalted()  returns FALSE (0002ms, 0617ms total)
T13E4 001:047 JLINK_IsHalted()  returns FALSE (0002ms, 0617ms total)
T13E4 001:050 JLINK_IsHalted()  returns FALSE (0002ms, 0617ms total)
T13E4 001:053 JLINK_IsHalted()  returns FALSE (0002ms, 0617ms total)
T13E4 001:057 JLINK_IsHalted()  returns FALSE (0002ms, 0617ms total)
T13E4 001:060 JLINK_IsHalted()  returns FALSE (0002ms, 0617ms total)
T13E4 001:063 JLINK_IsHalted()  returns FALSE (0002ms, 0617ms total)
T13E4 001:066 JLINK_IsHalted()  returns FALSE (0002ms, 0617ms total)
T13E4 001:070 JLINK_IsHalted() -- CPU_ReadMem(2 bytes @ 0x20000000)  returns TRUE (0008ms, 0623ms total)
T13E4 001:078 JLINK_ReadReg(R15 (PC))  returns 0x20000000 (0000ms, 0615ms total)
T13E4 001:078 JLINK_ClrBPEx(BPHandle = 0x00000003)  returns 0x00 (0000ms, 0615ms total)
T13E4 001:078 JLINK_ReadReg(R0)  returns 0x00000000 (0000ms, 0615ms total)
T13E4 001:079 JLINK_WriteReg(R0, 0x00000001)  returns 0x00 (0000ms, 0615ms total)
T13E4 001:079 JLINK_WriteReg(R1, 0x00004000)  returns 0x00 (0000ms, 0615ms total)
T13E4 001:079 JLINK_WriteReg(R2, 0x00000000)  returns 0x00 (0000ms, 0615ms total)
T13E4 001:079 JLINK_WriteReg(R3, 0x00000000)  returns 0x00 (0000ms, 0615ms total)
T13E4 001:079 JLINK_WriteReg(R4, 0x00000000)  returns 0x00 (0000ms, 0615ms total)
T13E4 001:079 JLINK_WriteReg(R5, 0x00000000)  returns 0x00 (0000ms, 0615ms total)
T13E4 001:079 JLINK_WriteReg(R6, 0x00000000)  returns 0x00 (0000ms, 0615ms total)
T13E4 001:079 JLINK_WriteReg(R7, 0x00000000)  returns 0x00 (0000ms, 0615ms total)
T13E4 001:079 JLINK_WriteReg(R8, 0x00000000)  returns 0x00 (0000ms, 0615ms total)
T13E4 001:079 JLINK_WriteReg(R9, 0x20000134)  returns 0x00 (0000ms, 0615ms total)
T13E4 001:079 JLINK_WriteReg(R10, 0x00000000)  returns 0x00 (0000ms, 0615ms total)
T13E4 001:079 JLINK_WriteReg(R11, 0x00000000)  returns 0x00 (0000ms, 0615ms total)
T13E4 001:079 JLINK_WriteReg(R12, 0x00000000)  returns 0x00 (0000ms, 0615ms total)
T13E4 001:079 JLINK_WriteReg(R13 (SP), 0x20001000)  returns 0x00 (0000ms, 0615ms total)
T13E4 001:079 JLINK_WriteReg(R14, 0x20000001)  returns 0x00 (0000ms, 0615ms total)
T13E4 001:079 JLINK_WriteReg(R15 (PC), 0x2000003C)  returns 0x00 (0000ms, 0615ms total)
T13E4 001:079 JLINK_WriteReg(XPSR, 0x01000000)  returns 0x00 (0000ms, 0615ms total)
T13E4 001:079 JLINK_WriteReg(MSP, 0x20001000)  returns 0x00 (0000ms, 0615ms total)
T13E4 001:079 JLINK_WriteReg(PSP, 0x20001000)  returns 0x00 (0000ms, 0615ms total)
T13E4 001:079 JLINK_WriteReg(CFBP, 0x00000000)  returns 0x00 (0000ms, 0615ms total)
T13E4 001:079 JLINK_SetBPEx(Addr = 0x20000000, Type = 0xFFFFFFF2)  returns 0x00000004 (0000ms, 0615ms total)
T13E4 001:079 JLINK_Go() -- CPU_ReadMem(4 bytes @ 0xE0001000) (0007ms, 0622ms total)
T13E4 001:086 JLINK_IsHalted() -- CPU_ReadMem(2 bytes @ 0x20000000)  returns TRUE (0009ms, 0631ms total)
T13E4 001:095 JLINK_ReadReg(R15 (PC))  returns 0x20000000 (0000ms, 0622ms total)
T13E4 001:095 JLINK_ClrBPEx(BPHandle = 0x00000004)  returns 0x00 (0000ms, 0622ms total)
T13E4 001:095 JLINK_ReadReg(R0)  returns 0x00000000 (0000ms, 0622ms total)
T13E4 001:149 JLINK_WriteMem(0x20000000, 0x0138 Bytes, ...) - Data: 00 BE 0A E0 0D 78 2D 06 68 40 08 24 40 00 00 D3 ... -- CPU_WriteMem(312 bytes @ 0x20000000)  returns 0x138 (0006ms, 0628ms total)
T13E4 001:155 JLINK_WriteReg(R0, 0x08000000)  returns 0x00 (0000ms, 0628ms total)
T13E4 001:155 JLINK_WriteReg(R1, 0x00B71B00)  returns 0x00 (0000ms, 0628ms total)
T13E4 001:155 JLINK_WriteReg(R2, 0x00000002)  returns 0x00 (0000ms, 0628ms total)
T13E4 001:155 JLINK_WriteReg(R3, 0x00000000)  returns 0x00 (0000ms, 0628ms total)
T13E4 001:155 JLINK_WriteReg(R4, 0x00000000)  returns 0x00 (0000ms, 0628ms total)
T13E4 001:155 JLINK_WriteReg(R5, 0x00000000)  returns 0x00 (0000ms, 0628ms total)
T13E4 001:155 JLINK_WriteReg(R6, 0x00000000)  returns 0x00 (0000ms, 0628ms total)
T13E4 001:155 JLINK_WriteReg(R7, 0x00000000)  returns 0x00 (0000ms, 0628ms total)
T13E4 001:155 JLINK_WriteReg(R8, 0x00000000)  returns 0x00 (0000ms, 0628ms total)
T13E4 001:155 JLINK_WriteReg(R9, 0x20000134)  returns 0x00 (0000ms, 0628ms total)
T13E4 001:155 JLINK_WriteReg(R10, 0x00000000)  returns 0x00 (0000ms, 0628ms total)
T13E4 001:155 JLINK_WriteReg(R11, 0x00000000)  returns 0x00 (0000ms, 0628ms total)
T13E4 001:155 JLINK_WriteReg(R12, 0x00000000)  returns 0x00 (0000ms, 0628ms total)
T13E4 001:155 JLINK_WriteReg(R13 (SP), 0x20001000)  returns 0x00 (0000ms, 0628ms total)
T13E4 001:155 JLINK_WriteReg(R14, 0x20000001)  returns 0x00 (0000ms, 0628ms total)
T13E4 001:155 JLINK_WriteReg(R15 (PC), 0x20000038)  returns 0x00 (0000ms, 0628ms total)
T13E4 001:155 JLINK_WriteReg(XPSR, 0x01000000)  returns 0x00 (0000ms, 0628ms total)
T13E4 001:155 JLINK_WriteReg(MSP, 0x20001000)  returns 0x00 (0000ms, 0628ms total)
T13E4 001:155 JLINK_WriteReg(PSP, 0x20001000)  returns 0x00 (0000ms, 0628ms total)
T13E4 001:155 JLINK_WriteReg(CFBP, 0x00000000)  returns 0x00 (0000ms, 0628ms total)
T13E4 001:155 JLINK_SetBPEx(Addr = 0x20000000, Type = 0xFFFFFFF2) -- CPU_ReadMem(2 bytes @ 0x20000000)  returns 0x00000005 (0002ms, 0630ms total)
T13E4 001:157 JLINK_Go() -- CPU_WriteMem(2 bytes @ 0x20000000) -- CPU_ReadMem(4 bytes @ 0xE0001000) (0010ms, 0640ms total)
T13E4 001:167 JLINK_IsHalted() -- CPU_ReadMem(2 bytes @ 0x20000000)  returns TRUE (0008ms, 0648ms total)
T13E4 001:175 JLINK_ReadReg(R15 (PC))  returns 0x20000000 (0000ms, 0640ms total)
T13E4 001:175 JLINK_ClrBPEx(BPHandle = 0x00000005)  returns 0x00 (0000ms, 0640ms total)
T13E4 001:175 JLINK_ReadReg(R0)  returns 0x00000000 (0000ms, 0640ms total)
T13E4 001:175 JLINK_WriteMem(0x20000138, 0x0100 Bytes, ...) - Data: 90 0C 00 20 E1 02 00 08 ED 02 00 08 ED 02 00 08 ... -- CPU_WriteMem(256 bytes @ 0x20000138)  returns 0x100 (0004ms, 0644ms total)
T13E4 001:179 JLINK_WriteReg(R0, 0x08000000)  returns 0x00 (0000ms, 0644ms total)
T13E4 001:179 JLINK_WriteReg(R1, 0x00000100)  returns 0x00 (0000ms, 0644ms total)
T13E4 001:179 JLINK_WriteReg(R2, 0x20000138)  returns 0x00 (0000ms, 0644ms total)
T13E4 001:179 JLINK_WriteReg(R3, 0x00000000)  returns 0x00 (0000ms, 0644ms total)
T13E4 001:179 JLINK_WriteReg(R4, 0x00000000)  returns 0x00 (0000ms, 0644ms total)
T13E4 001:179 JLINK_WriteReg(R5, 0x00000000)  returns 0x00 (0000ms, 0644ms total)
T13E4 001:179 JLINK_WriteReg(R6, 0x00000000)  returns 0x00 (0000ms, 0644ms total)
T13E4 001:179 JLINK_WriteReg(R7, 0x00000000)  returns 0x00 (0000ms, 0644ms total)
T13E4 001:179 JLINK_WriteReg(R8, 0x00000000)  returns 0x00 (0000ms, 0644ms total)
T13E4 001:179 JLINK_WriteReg(R9, 0x20000134)  returns 0x00 (0000ms, 0644ms total)
T13E4 001:179 JLINK_WriteReg(R10, 0x00000000)  returns 0x00 (0000ms, 0644ms total)
T13E4 001:179 JLINK_WriteReg(R11, 0x00000000)  returns 0x00 (0000ms, 0644ms total)
T13E4 001:179 JLINK_WriteReg(R12, 0x00000000)  returns 0x00 (0000ms, 0644ms total)
T13E4 001:179 JLINK_WriteReg(R13 (SP), 0x20001000)  returns 0x00 (0000ms, 0644ms total)
T13E4 001:179 JLINK_WriteReg(R14, 0x20000001)  returns 0x00 (0000ms, 0644ms total)
T13E4 001:179 JLINK_WriteReg(R15 (PC), 0x200000B0)  returns 0x00 (0000ms, 0644ms total)
T13E4 001:179 JLINK_WriteReg(XPSR, 0x01000000)  returns 0x00 (0000ms, 0644ms total)
T13E4 001:179 JLINK_WriteReg(MSP, 0x20001000)  returns 0x00 (0000ms, 0644ms total)
T13E4 001:179 JLINK_WriteReg(PSP, 0x20001000)  returns 0x00 (0000ms, 0644ms total)
T13E4 001:179 JLINK_WriteReg(CFBP, 0x00000000)  returns 0x00 (0000ms, 0644ms total)
T13E4 001:179 JLINK_SetBPEx(Addr = 0x20000000, Type = 0xFFFFFFF2)  returns 0x00000006 (0000ms, 0644ms total)
T13E4 001:179 JLINK_Go() -- CPU_ReadMem(4 bytes @ 0xE0001000) (0008ms, 0652ms total)
T13E4 001:187 JLINK_IsHalted()  returns FALSE (0002ms, 0654ms total)
T13E4 001:194 JLINK_IsHalted() -- CPU_ReadMem(2 bytes @ 0x20000000)  returns TRUE (0008ms, 0660ms total)
T13E4 001:202 JLINK_ReadReg(R15 (PC))  returns 0x20000000 (0000ms, 0652ms total)
T13E4 001:202 JLINK_ClrBPEx(BPHandle = 0x00000006)  returns 0x00 (0000ms, 0652ms total)
T13E4 001:202 JLINK_ReadReg(R0)  returns 0x00000000 (0000ms, 0652ms total)
T13E4 001:203 JLINK_WriteMem(0x20000138, 0x0100 Bytes, ...) - Data: ED 02 00 08 ED 02 00 08 ED 02 00 08 ED 02 00 08 ... -- CPU_WriteMem(256 bytes @ 0x20000138)  returns 0x100 (0003ms, 0655ms total)
T13E4 001:206 JLINK_WriteReg(R0, 0x08000100)  returns 0x00 (0000ms, 0655ms total)
T13E4 001:206 JLINK_WriteReg(R1, 0x00000100)  returns 0x00 (0000ms, 0655ms total)
T13E4 001:206 JLINK_WriteReg(R2, 0x20000138)  returns 0x00 (0000ms, 0655ms total)
T13E4 001:206 JLINK_WriteReg(R3, 0x00000000)  returns 0x00 (0000ms, 0655ms total)
T13E4 001:206 JLINK_WriteReg(R4, 0x00000000)  returns 0x00 (0000ms, 0655ms total)
T13E4 001:206 JLINK_WriteReg(R5, 0x00000000)  returns 0x00 (0000ms, 0655ms total)
T13E4 001:206 JLINK_WriteReg(R6, 0x00000000)  returns 0x00 (0000ms, 0655ms total)
T13E4 001:206 JLINK_WriteReg(R7, 0x00000000)  returns 0x00 (0000ms, 0655ms total)
T13E4 001:206 JLINK_WriteReg(R8, 0x00000000)  returns 0x00 (0000ms, 0655ms total)
T13E4 001:206 JLINK_WriteReg(R9, 0x20000134)  returns 0x00 (0000ms, 0655ms total)
T13E4 001:206 JLINK_WriteReg(R10, 0x00000000)  returns 0x00 (0000ms, 0655ms total)
T13E4 001:207 JLINK_WriteReg(R11, 0x00000000)  returns 0x00 (0000ms, 0655ms total)
T13E4 001:207 JLINK_WriteReg(R12, 0x00000000)  returns 0x00 (0000ms, 0655ms total)
T13E4 001:207 JLINK_WriteReg(R13 (SP), 0x20001000)  returns 0x00 (0000ms, 0655ms total)
T13E4 001:207 JLINK_WriteReg(R14, 0x20000001)  returns 0x00 (0000ms, 0655ms total)
T13E4 001:207 JLINK_WriteReg(R15 (PC), 0x200000B0)  returns 0x00 (0000ms, 0655ms total)
T13E4 001:207 JLINK_WriteReg(XPSR, 0x01000000)  returns 0x00 (0000ms, 0655ms total)
T13E4 001:207 JLINK_WriteReg(MSP, 0x20001000)  returns 0x00 (0000ms, 0655ms total)
T13E4 001:207 JLINK_WriteReg(PSP, 0x20001000)  returns 0x00 (0000ms, 0655ms total)
T13E4 001:207 JLINK_WriteReg(CFBP, 0x00000000)  returns 0x00 (0000ms, 0655ms total)
T13E4 001:207 JLINK_SetBPEx(Addr = 0x20000000, Type = 0xFFFFFFF2)  returns 0x00000007 (0000ms, 0655ms total)
T13E4 001:207 JLINK_Go() -- CPU_ReadMem(4 bytes @ 0xE0001000) (0007ms, 0662ms total)
T13E4 001:214 JLINK_IsHalted()  returns FALSE (0002ms, 0664ms total)
T13E4 001:219 JLINK_IsHalted() -- CPU_ReadMem(2 bytes @ 0x20000000)  returns TRUE (0008ms, 0670ms total)
T13E4 001:227 JLINK_ReadReg(R15 (PC))  returns 0x20000000 (0000ms, 0662ms total)
T13E4 001:227 JLINK_ClrBPEx(BPHandle = 0x00000007)  returns 0x00 (0000ms, 0662ms total)
T13E4 001:227 JLINK_ReadReg(R0)  returns 0x00000000 (0000ms, 0662ms total)
T13E4 001:228 JLINK_WriteMem(0x20000138, 0x0100 Bytes, ...) - Data: 00 F0 02 F8 00 F0 5C F8 0A A0 90 E8 00 0C 82 44 ... -- CPU_WriteMem(256 bytes @ 0x20000138)  returns 0x100 (0004ms, 0667ms total)
T13E4 001:232 JLINK_WriteReg(R0, 0x08000200)  returns 0x00 (0000ms, 0667ms total)
T13E4 001:232 JLINK_WriteReg(R1, 0x00000100)  returns 0x00 (0000ms, 0667ms total)
T13E4 001:232 JLINK_WriteReg(R2, 0x20000138)  returns 0x00 (0000ms, 0667ms total)
T13E4 001:232 JLINK_WriteReg(R3, 0x00000000)  returns 0x00 (0000ms, 0667ms total)
T13E4 001:232 JLINK_WriteReg(R4, 0x00000000)  returns 0x00 (0000ms, 0667ms total)
T13E4 001:232 JLINK_WriteReg(R5, 0x00000000)  returns 0x00 (0000ms, 0667ms total)
T13E4 001:232 JLINK_WriteReg(R6, 0x00000000)  returns 0x00 (0000ms, 0667ms total)
T13E4 001:232 JLINK_WriteReg(R7, 0x00000000)  returns 0x00 (0000ms, 0667ms total)
T13E4 001:232 JLINK_WriteReg(R8, 0x00000000)  returns 0x00 (0000ms, 0667ms total)
T13E4 001:232 JLINK_WriteReg(R9, 0x20000134)  returns 0x00 (0000ms, 0667ms total)
T13E4 001:232 JLINK_WriteReg(R10, 0x00000000)  returns 0x00 (0000ms, 0667ms total)
T13E4 001:232 JLINK_WriteReg(R11, 0x00000000)  returns 0x00 (0000ms, 0667ms total)
T13E4 001:232 JLINK_WriteReg(R12, 0x00000000)  returns 0x00 (0000ms, 0667ms total)
T13E4 001:232 JLINK_WriteReg(R13 (SP), 0x20001000)  returns 0x00 (0000ms, 0667ms total)
T13E4 001:232 JLINK_WriteReg(R14, 0x20000001)  returns 0x00 (0000ms, 0667ms total)
T13E4 001:232 JLINK_WriteReg(R15 (PC), 0x200000B0)  returns 0x00 (0000ms, 0667ms total)
T13E4 001:232 JLINK_WriteReg(XPSR, 0x01000000)  returns 0x00 (0000ms, 0667ms total)
T13E4 001:232 JLINK_WriteReg(MSP, 0x20001000)  returns 0x00 (0000ms, 0667ms total)
T13E4 001:232 JLINK_WriteReg(PSP, 0x20001000)  returns 0x00 (0000ms, 0667ms total)
T13E4 001:232 JLINK_WriteReg(CFBP, 0x00000000)  returns 0x00 (0000ms, 0667ms total)
T13E4 001:232 JLINK_SetBPEx(Addr = 0x20000000, Type = 0xFFFFFFF2)  returns 0x00000008 (0000ms, 0667ms total)
T13E4 001:232 JLINK_Go() -- CPU_ReadMem(4 bytes @ 0xE0001000) (0007ms, 0674ms total)
T13E4 001:240 JLINK_IsHalted()  returns FALSE (0002ms, 0676ms total)
T13E4 001:244 JLINK_IsHalted() -- CPU_ReadMem(2 bytes @ 0x20000000)  returns TRUE (0008ms, 0682ms total)
T13E4 001:252 JLINK_ReadReg(R15 (PC))  returns 0x20000000 (0000ms, 0674ms total)
T13E4 001:252 JLINK_ClrBPEx(BPHandle = 0x00000008)  returns 0x00 (0000ms, 0674ms total)
T13E4 001:252 JLINK_ReadReg(R0)  returns 0x00000000 (0000ms, 0674ms total)
T13E4 001:253 JLINK_WriteMem(0x20000138, 0x0100 Bytes, ...) - Data: 45 1B 00 08 01 02 00 08 90 02 00 20 90 0C 00 20 ... -- CPU_WriteMem(256 bytes @ 0x20000138)  returns 0x100 (0003ms, 0677ms total)
T13E4 001:256 JLINK_WriteReg(R0, 0x08000300)  returns 0x00 (0000ms, 0677ms total)
T13E4 001:256 JLINK_WriteReg(R1, 0x00000100)  returns 0x00 (0000ms, 0677ms total)
T13E4 001:256 JLINK_WriteReg(R2, 0x20000138)  returns 0x00 (0000ms, 0677ms total)
T13E4 001:256 JLINK_WriteReg(R3, 0x00000000)  returns 0x00 (0000ms, 0677ms total)
T13E4 001:256 JLINK_WriteReg(R4, 0x00000000)  returns 0x00 (0000ms, 0677ms total)
T13E4 001:256 JLINK_WriteReg(R5, 0x00000000)  returns 0x00 (0000ms, 0677ms total)
T13E4 001:256 JLINK_WriteReg(R6, 0x00000000)  returns 0x00 (0000ms, 0677ms total)
T13E4 001:256 JLINK_WriteReg(R7, 0x00000000)  returns 0x00 (0001ms, 0678ms total)
T13E4 001:257 JLINK_WriteReg(R8, 0x00000000)  returns 0x00 (0000ms, 0678ms total)
T13E4 001:257 JLINK_WriteReg(R9, 0x20000134)  returns 0x00 (0000ms, 0678ms total)
T13E4 001:257 JLINK_WriteReg(R10, 0x00000000)  returns 0x00 (0000ms, 0678ms total)
T13E4 001:257 JLINK_WriteReg(R11, 0x00000000)  returns 0x00 (0000ms, 0678ms total)
T13E4 001:257 JLINK_WriteReg(R12, 0x00000000)  returns 0x00 (0000ms, 0678ms total)
T13E4 001:257 JLINK_WriteReg(R13 (SP), 0x20001000)  returns 0x00 (0000ms, 0678ms total)
T13E4 001:257 JLINK_WriteReg(R14, 0x20000001)  returns 0x00 (0000ms, 0678ms total)
T13E4 001:257 JLINK_WriteReg(R15 (PC), 0x200000B0)  returns 0x00 (0000ms, 0678ms total)
T13E4 001:257 JLINK_WriteReg(XPSR, 0x01000000)  returns 0x00 (0000ms, 0678ms total)
T13E4 001:257 JLINK_WriteReg(MSP, 0x20001000)  returns 0x00 (0000ms, 0678ms total)
T13E4 001:257 JLINK_WriteReg(PSP, 0x20001000)  returns 0x00 (0000ms, 0678ms total)
T13E4 001:257 JLINK_WriteReg(CFBP, 0x00000000)  returns 0x00 (0000ms, 0678ms total)
T13E4 001:257 JLINK_SetBPEx(Addr = 0x20000000, Type = 0xFFFFFFF2)  returns 0x00000009 (0000ms, 0678ms total)
T13E4 001:257 JLINK_Go() -- CPU_ReadMem(4 bytes @ 0xE0001000) (0007ms, 0685ms total)
T13E4 001:264 JLINK_IsHalted()  returns FALSE (0003ms, 0688ms total)
T13E4 001:269 JLINK_IsHalted() -- CPU_ReadMem(2 bytes @ 0x20000000)  returns TRUE (0009ms, 0694ms total)
T13E4 001:278 JLINK_ReadReg(R15 (PC))  returns 0x20000000 (0000ms, 0685ms total)
T13E4 001:278 JLINK_ClrBPEx(BPHandle = 0x00000009)  returns 0x00 (0000ms, 0685ms total)
T13E4 001:278 JLINK_ReadReg(R0)  returns 0x00000000 (0000ms, 0685ms total)
T13E4 001:278 JLINK_WriteMem(0x20000138, 0x0100 Bytes, ...) - Data: 20 F8 02 3B 48 BF 00 F8 01 2B 70 47 75 46 00 F0 ... -- CPU_WriteMem(256 bytes @ 0x20000138)  returns 0x100 (0003ms, 0688ms total)
T13E4 001:281 JLINK_WriteReg(R0, 0x08000400)  returns 0x00 (0000ms, 0688ms total)
T13E4 001:281 JLINK_WriteReg(R1, 0x00000100)  returns 0x00 (0000ms, 0688ms total)
T13E4 001:281 JLINK_WriteReg(R2, 0x20000138)  returns 0x00 (0000ms, 0688ms total)
T13E4 001:281 JLINK_WriteReg(R3, 0x00000000)  returns 0x00 (0000ms, 0688ms total)
T13E4 001:281 JLINK_WriteReg(R4, 0x00000000)  returns 0x00 (0000ms, 0688ms total)
T13E4 001:281 JLINK_WriteReg(R5, 0x00000000)  returns 0x00 (0000ms, 0688ms total)
T13E4 001:281 JLINK_WriteReg(R6, 0x00000000)  returns 0x00 (0001ms, 0689ms total)
T13E4 001:282 JLINK_WriteReg(R7, 0x00000000)  returns 0x00 (0000ms, 0689ms total)
T13E4 001:282 JLINK_WriteReg(R8, 0x00000000)  returns 0x00 (0000ms, 0689ms total)
T13E4 001:282 JLINK_WriteReg(R9, 0x20000134)  returns 0x00 (0000ms, 0689ms total)
T13E4 001:282 JLINK_WriteReg(R10, 0x00000000)  returns 0x00 (0000ms, 0689ms total)
T13E4 001:282 JLINK_WriteReg(R11, 0x00000000)  returns 0x00 (0000ms, 0689ms total)
T13E4 001:282 JLINK_WriteReg(R12, 0x00000000)  returns 0x00 (0000ms, 0689ms total)
T13E4 001:282 JLINK_WriteReg(R13 (SP), 0x20001000)  returns 0x00 (0000ms, 0689ms total)
T13E4 001:282 JLINK_WriteReg(R14, 0x20000001)  returns 0x00 (0000ms, 0689ms total)
T13E4 001:282 JLINK_WriteReg(R15 (PC), 0x200000B0)  returns 0x00 (0000ms, 0689ms total)
T13E4 001:282 JLINK_WriteReg(XPSR, 0x01000000)  returns 0x00 (0000ms, 0689ms total)
T13E4 001:282 JLINK_WriteReg(MSP, 0x20001000)  returns 0x00 (0000ms, 0689ms total)
T13E4 001:282 JLINK_WriteReg(PSP, 0x20001000)  returns 0x00 (0000ms, 0689ms total)
T13E4 001:282 JLINK_WriteReg(CFBP, 0x00000000)  returns 0x00 (0000ms, 0689ms total)
T13E4 001:282 JLINK_SetBPEx(Addr = 0x20000000, Type = 0xFFFFFFF2)  returns 0x0000000A (0000ms, 0689ms total)
T13E4 001:282 JLINK_Go() -- CPU_ReadMem(4 bytes @ 0xE0001000) (0007ms, 0696ms total)
T13E4 001:289 JLINK_IsHalted()  returns FALSE (0003ms, 0699ms total)
T13E4 001:293 JLINK_IsHalted() -- CPU_ReadMem(2 bytes @ 0x20000000)  returns TRUE (0008ms, 0704ms total)
T13E4 001:301 JLINK_ReadReg(R15 (PC))  returns 0x20000000 (0000ms, 0696ms total)
T13E4 001:301 JLINK_ClrBPEx(BPHandle = 0x0000000A)  returns 0x00 (0000ms, 0696ms total)
T13E4 001:301 JLINK_ReadReg(R0)  returns 0x00000000 (0000ms, 0696ms total)
T13E4 001:302 JLINK_WriteMem(0x20000138, 0x0100 Bytes, ...) - Data: 01 0B 0B FA 08 FB AB F1 01 0B 0B EA 0C 0B 4A EA ... -- CPU_WriteMem(256 bytes @ 0x20000138)  returns 0x100 (0003ms, 0699ms total)
T13E4 001:305 JLINK_WriteReg(R0, 0x08000500)  returns 0x00 (0000ms, 0699ms total)
T13E4 001:305 JLINK_WriteReg(R1, 0x00000100)  returns 0x00 (0000ms, 0699ms total)
T13E4 001:305 JLINK_WriteReg(R2, 0x20000138)  returns 0x00 (0000ms, 0699ms total)
T13E4 001:305 JLINK_WriteReg(R3, 0x00000000)  returns 0x00 (0000ms, 0699ms total)
T13E4 001:305 JLINK_WriteReg(R4, 0x00000000)  returns 0x00 (0000ms, 0699ms total)
T13E4 001:305 JLINK_WriteReg(R5, 0x00000000)  returns 0x00 (0000ms, 0699ms total)
T13E4 001:305 JLINK_WriteReg(R6, 0x00000000)  returns 0x00 (0000ms, 0699ms total)
T13E4 001:305 JLINK_WriteReg(R7, 0x00000000)  returns 0x00 (0000ms, 0699ms total)
T13E4 001:305 JLINK_WriteReg(R8, 0x00000000)  returns 0x00 (0000ms, 0699ms total)
T13E4 001:305 JLINK_WriteReg(R9, 0x20000134)  returns 0x00 (0000ms, 0699ms total)
T13E4 001:305 JLINK_WriteReg(R10, 0x00000000)  returns 0x00 (0000ms, 0699ms total)
T13E4 001:305 JLINK_WriteReg(R11, 0x00000000)  returns 0x00 (0000ms, 0699ms total)
T13E4 001:305 JLINK_WriteReg(R12, 0x00000000)  returns 0x00 (0000ms, 0699ms total)
T13E4 001:305 JLINK_WriteReg(R13 (SP), 0x20001000)  returns 0x00 (0000ms, 0699ms total)
T13E4 001:305 JLINK_WriteReg(R14, 0x20000001)  returns 0x00 (0000ms, 0699ms total)
T13E4 001:305 JLINK_WriteReg(R15 (PC), 0x200000B0)  returns 0x00 (0000ms, 0699ms total)
T13E4 001:305 JLINK_WriteReg(XPSR, 0x01000000)  returns 0x00 (0000ms, 0699ms total)
T13E4 001:305 JLINK_WriteReg(MSP, 0x20001000)  returns 0x00 (0000ms, 0699ms total)
T13E4 001:305 JLINK_WriteReg(PSP, 0x20001000)  returns 0x00 (0000ms, 0699ms total)
T13E4 001:305 JLINK_WriteReg(CFBP, 0x00000000)  returns 0x00 (0000ms, 0699ms total)
T13E4 001:305 JLINK_SetBPEx(Addr = 0x20000000, Type = 0xFFFFFFF2)  returns 0x0000000B (0000ms, 0699ms total)
T13E4 001:305 JLINK_Go() -- CPU_ReadMem(4 bytes @ 0xE0001000) (0008ms, 0707ms total)
T13E4 001:313 JLINK_IsHalted()  returns FALSE (0002ms, 0709ms total)
T13E4 001:316 JLINK_IsHalted()  returns FALSE (0002ms, 0709ms total)
T13E4 001:319 JLINK_IsHalted() -- CPU_ReadMem(2 bytes @ 0x20000000)  returns TRUE (0009ms, 0716ms total)
T13E4 001:328 JLINK_ReadReg(R15 (PC))  returns 0x20000000 (0000ms, 0707ms total)
T13E4 001:328 JLINK_ClrBPEx(BPHandle = 0x0000000B)  returns 0x00 (0000ms, 0707ms total)
T13E4 001:328 JLINK_ReadReg(R0)  returns 0x00000000 (0000ms, 0707ms total)
T13E4 001:328 JLINK_WriteMem(0x20000138, 0x0100 Bytes, ...) - Data: 56 F8 20 60 B6 B2 33 46 00 BF 1A 46 36 48 00 68 ... -- CPU_WriteMem(256 bytes @ 0x20000138)  returns 0x100 (0004ms, 0711ms total)
T13E4 001:332 JLINK_WriteReg(R0, 0x08000600)  returns 0x00 (0000ms, 0711ms total)
T13E4 001:332 JLINK_WriteReg(R1, 0x00000100)  returns 0x00 (0000ms, 0711ms total)
T13E4 001:332 JLINK_WriteReg(R2, 0x20000138)  returns 0x00 (0000ms, 0711ms total)
T13E4 001:332 JLINK_WriteReg(R3, 0x00000000)  returns 0x00 (0000ms, 0711ms total)
T13E4 001:332 JLINK_WriteReg(R4, 0x00000000)  returns 0x00 (0000ms, 0711ms total)
T13E4 001:332 JLINK_WriteReg(R5, 0x00000000)  returns 0x00 (0000ms, 0711ms total)
T13E4 001:332 JLINK_WriteReg(R6, 0x00000000)  returns 0x00 (0000ms, 0711ms total)
T13E4 001:332 JLINK_WriteReg(R7, 0x00000000)  returns 0x00 (0000ms, 0711ms total)
T13E4 001:332 JLINK_WriteReg(R8, 0x00000000)  returns 0x00 (0000ms, 0711ms total)
T13E4 001:332 JLINK_WriteReg(R9, 0x20000134)  returns 0x00 (0000ms, 0711ms total)
T13E4 001:332 JLINK_WriteReg(R10, 0x00000000)  returns 0x00 (0000ms, 0711ms total)
T13E4 001:332 JLINK_WriteReg(R11, 0x00000000)  returns 0x00 (0000ms, 0711ms total)
T13E4 001:332 JLINK_WriteReg(R12, 0x00000000)  returns 0x00 (0000ms, 0711ms total)
T13E4 001:332 JLINK_WriteReg(R13 (SP), 0x20001000)  returns 0x00 (0000ms, 0711ms total)
T13E4 001:332 JLINK_WriteReg(R14, 0x20000001)  returns 0x00 (0000ms, 0711ms total)
T13E4 001:332 JLINK_WriteReg(R15 (PC), 0x200000B0)  returns 0x00 (0000ms, 0711ms total)
T13E4 001:332 JLINK_WriteReg(XPSR, 0x01000000)  returns 0x00 (0000ms, 0711ms total)
T13E4 001:332 JLINK_WriteReg(MSP, 0x20001000)  returns 0x00 (0000ms, 0711ms total)
T13E4 001:332 JLINK_WriteReg(PSP, 0x20001000)  returns 0x00 (0000ms, 0711ms total)
T13E4 001:332 JLINK_WriteReg(CFBP, 0x00000000)  returns 0x00 (0000ms, 0711ms total)
T13E4 001:332 JLINK_SetBPEx(Addr = 0x20000000, Type = 0xFFFFFFF2)  returns 0x0000000C (0000ms, 0711ms total)
T13E4 001:332 JLINK_Go() -- CPU_ReadMem(4 bytes @ 0xE0001000) (0007ms, 0718ms total)
T13E4 001:339 JLINK_IsHalted()  returns FALSE (0003ms, 0721ms total)
T13E4 001:343 JLINK_IsHalted() -- CPU_ReadMem(2 bytes @ 0x20000000)  returns TRUE (0008ms, 0726ms total)
T13E4 001:351 JLINK_ReadReg(R15 (PC))  returns 0x20000000 (0001ms, 0719ms total)
T13E4 001:352 JLINK_ClrBPEx(BPHandle = 0x0000000C)  returns 0x00 (0000ms, 0719ms total)
T13E4 001:352 JLINK_ReadReg(R0)  returns 0x00000000 (0000ms, 0719ms total)
T13E4 001:352 JLINK_WriteMem(0x20000138, 0x0100 Bytes, ...) - Data: 80 6E 40 F0 01 00 04 49 88 66 08 20 81 F8 64 00 ... -- CPU_WriteMem(256 bytes @ 0x20000138)  returns 0x100 (0003ms, 0722ms total)
T13E4 001:355 JLINK_WriteReg(R0, 0x08000700)  returns 0x00 (0000ms, 0722ms total)
T13E4 001:355 JLINK_WriteReg(R1, 0x00000100)  returns 0x00 (0000ms, 0722ms total)
T13E4 001:355 JLINK_WriteReg(R2, 0x20000138)  returns 0x00 (0000ms, 0722ms total)
T13E4 001:355 JLINK_WriteReg(R3, 0x00000000)  returns 0x00 (0000ms, 0722ms total)
T13E4 001:355 JLINK_WriteReg(R4, 0x00000000)  returns 0x00 (0000ms, 0722ms total)
T13E4 001:355 JLINK_WriteReg(R5, 0x00000000)  returns 0x00 (0000ms, 0722ms total)
T13E4 001:355 JLINK_WriteReg(R6, 0x00000000)  returns 0x00 (0001ms, 0723ms total)
T13E4 001:356 JLINK_WriteReg(R7, 0x00000000)  returns 0x00 (0000ms, 0723ms total)
T13E4 001:356 JLINK_WriteReg(R8, 0x00000000)  returns 0x00 (0000ms, 0723ms total)
T13E4 001:356 JLINK_WriteReg(R9, 0x20000134)  returns 0x00 (0000ms, 0723ms total)
T13E4 001:356 JLINK_WriteReg(R10, 0x00000000)  returns 0x00 (0000ms, 0723ms total)
T13E4 001:356 JLINK_WriteReg(R11, 0x00000000)  returns 0x00 (0000ms, 0723ms total)
T13E4 001:356 JLINK_WriteReg(R12, 0x00000000)  returns 0x00 (0000ms, 0723ms total)
T13E4 001:356 JLINK_WriteReg(R13 (SP), 0x20001000)  returns 0x00 (0000ms, 0723ms total)
T13E4 001:356 JLINK_WriteReg(R14, 0x20000001)  returns 0x00 (0000ms, 0723ms total)
T13E4 001:356 JLINK_WriteReg(R15 (PC), 0x200000B0)  returns 0x00 (0000ms, 0723ms total)
T13E4 001:356 JLINK_WriteReg(XPSR, 0x01000000)  returns 0x00 (0000ms, 0723ms total)
T13E4 001:356 JLINK_WriteReg(MSP, 0x20001000)  returns 0x00 (0000ms, 0723ms total)
T13E4 001:356 JLINK_WriteReg(PSP, 0x20001000)  returns 0x00 (0000ms, 0723ms total)
T13E4 001:356 JLINK_WriteReg(CFBP, 0x00000000)  returns 0x00 (0000ms, 0723ms total)
T13E4 001:356 JLINK_SetBPEx(Addr = 0x20000000, Type = 0xFFFFFFF2)  returns 0x0000000D (0000ms, 0723ms total)
T13E4 001:356 JLINK_Go() -- CPU_ReadMem(4 bytes @ 0xE0001000) (0007ms, 0730ms total)
T13E4 001:363 JLINK_IsHalted()  returns FALSE (0003ms, 0733ms total)
T13E4 001:368 JLINK_IsHalted() -- CPU_ReadMem(2 bytes @ 0x20000000)  returns TRUE (0008ms, 0738ms total)
T13E4 001:376 JLINK_ReadReg(R15 (PC))  returns 0x20000000 (0000ms, 0730ms total)
T13E4 001:376 JLINK_ClrBPEx(BPHandle = 0x0000000D)  returns 0x00 (0000ms, 0730ms total)
T13E4 001:376 JLINK_ReadReg(R0)  returns 0x00000000 (0000ms, 0730ms total)
T13E4 001:376 JLINK_WriteMem(0x20000138, 0x0100 Bytes, ...) - Data: 00 C1 00 40 9C 01 00 20 00 C0 00 40 98 01 00 20 ... -- CPU_WriteMem(256 bytes @ 0x20000138)  returns 0x100 (0004ms, 0734ms total)
T13E4 001:380 JLINK_WriteReg(R0, 0x08000800)  returns 0x00 (0000ms, 0734ms total)
T13E4 001:380 JLINK_WriteReg(R1, 0x00000100)  returns 0x00 (0000ms, 0734ms total)
T13E4 001:380 JLINK_WriteReg(R2, 0x20000138)  returns 0x00 (0000ms, 0734ms total)
T13E4 001:380 JLINK_WriteReg(R3, 0x00000000)  returns 0x00 (0000ms, 0734ms total)
T13E4 001:380 JLINK_WriteReg(R4, 0x00000000)  returns 0x00 (0000ms, 0734ms total)
T13E4 001:380 JLINK_WriteReg(R5, 0x00000000)  returns 0x00 (0000ms, 0734ms total)
T13E4 001:380 JLINK_WriteReg(R6, 0x00000000)  returns 0x00 (0000ms, 0734ms total)
T13E4 001:380 JLINK_WriteReg(R7, 0x00000000)  returns 0x00 (0000ms, 0734ms total)
T13E4 001:380 JLINK_WriteReg(R8, 0x00000000)  returns 0x00 (0000ms, 0734ms total)
T13E4 001:380 JLINK_WriteReg(R9, 0x20000134)  returns 0x00 (0000ms, 0734ms total)
T13E4 001:380 JLINK_WriteReg(R10, 0x00000000)  returns 0x00 (0000ms, 0734ms total)
T13E4 001:380 JLINK_WriteReg(R11, 0x00000000)  returns 0x00 (0000ms, 0734ms total)
T13E4 001:380 JLINK_WriteReg(R12, 0x00000000)  returns 0x00 (0000ms, 0734ms total)
T13E4 001:380 JLINK_WriteReg(R13 (SP), 0x20001000)  returns 0x00 (0000ms, 0734ms total)
T13E4 001:380 JLINK_WriteReg(R14, 0x20000001)  returns 0x00 (0000ms, 0734ms total)
T13E4 001:380 JLINK_WriteReg(R15 (PC), 0x200000B0)  returns 0x00 (0000ms, 0734ms total)
T13E4 001:380 JLINK_WriteReg(XPSR, 0x01000000)  returns 0x00 (0000ms, 0734ms total)
T13E4 001:380 JLINK_WriteReg(MSP, 0x20001000)  returns 0x00 (0000ms, 0734ms total)
T13E4 001:380 JLINK_WriteReg(PSP, 0x20001000)  returns 0x00 (0000ms, 0734ms total)
T13E4 001:380 JLINK_WriteReg(CFBP, 0x00000000)  returns 0x00 (0000ms, 0734ms total)
T13E4 001:380 JLINK_SetBPEx(Addr = 0x20000000, Type = 0xFFFFFFF2)  returns 0x0000000E (0000ms, 0734ms total)
T13E4 001:380 JLINK_Go() -- CPU_ReadMem(4 bytes @ 0xE0001000) (0007ms, 0741ms total)
T13E4 001:387 JLINK_IsHalted()  returns FALSE (0003ms, 0744ms total)
T13E4 001:391 JLINK_IsHalted() -- CPU_ReadMem(2 bytes @ 0x20000000)  returns TRUE (0008ms, 0749ms total)
T13E4 001:399 JLINK_ReadReg(R15 (PC))  returns 0x20000000 (0000ms, 0741ms total)
